!CSV A.01.01
!Keysight Technologies,E5080B,MY59100151,A.13.70.02
!Date: Wednesday, April 01, 2020 17:41:28
!Source: Standard

BEGIN CH1_DATA
Freq(Hz),S11(MAG),S11(DEG),S12(MAG),S12(DEG),S21(MAG),S21(DEG),S22(MAG),S22(DEG)
9000,0.99887115,0.61036676,0.0014672655,-0.79627639,0.0042900695,-117.26782,0.99771887,0.49016902
508995.5,1.0000142,-5.5653744,0.0015726628,130.3132,0.03139643,174.52615,0.99521184,-10.113569
1008991,0.99689168,-11.101538,0.0011070856,162.811,0.018362846,-170.50917,0.9853785,-13.312706
1508986.5,0.99527305,-16.386286,0.0026460874,-150.58571,0.010283282,75.768562,0.99284846,-22.704014
2008982,0.9974941,-21.932766,0.00077220809,167.5322,0.017827023,-67.892723,0.96018517,-31.840778
2508977.5,0.99569225,-27.315784,0.00078502367,123.30106,0.020453835,-115.63738,0.96228504,-38.891922
3008973,0.99579793,-32.893372,0.0014198124,-83.63372,0.016306533,-120.0042,0.99197567,-47.802052
3508968.5,0.99338442,-38.440735,0.00098131318,-141.39378,0.013701772,6.8007231,0.95204973,-54.170395
4008964,0.99585611,-44.170635,0.0014532073,-132.79948,0.024647994,-170.104,0.96476358,-64.4338
4508959.5,0.98985177,-49.3923,0.0014654016,-104.71594,0.071251087,8.6621618,0.91884482,-69.688477
5008955,0.98852473,-54.947498,0.00030923041,59.406254,0.019810596,29.48357,0.94200081,-77.17202
5508950.5,0.98167598,-60.233334,0.0004720857,-69.784981,0.0091385068,-48.690441,0.87714523,-83.742546
6008946,0.98119164,-65.752319,0.00037216389,-14.797694,0.026543863,-79.207603,0.88596016,-92.445183
6508941.5,0.97799379,-71.561783,0.00090103294,170.12451,0.025160685,21.296965,0.87285101,-99.976944
7008937,0.97169805,-76.906685,0.0011464467,-175.10017,0.027089968,168.39304,0.85545951,-106.87721
7508932.5,0.97154874,-82.17086,0.00078663026,94.034607,0.029493144,49.116863,0.86180437,-113.54866
8008928,0.96774393,-87.802353,0.0010961881,57.230633,0.038098406,-76.342949,0.83213276,-116.41865
8508923.5,0.96634835,-93.449974,0.00052942726,148.03824,0.033820257,31.613575,0.7914564,-125.89077
9008919,0.95696658,-98.863411,0.00015161894,70.107346,0.0080162892,-134.0083,0.78915942,-132.08705
9508914.5,0.95277685,-104.23933,0.00049077964,-52.610546,0.050738532,-49.547573,0.80564934,-137.31026
10008910,0.9495222,-109.70238,0.0008067867,-167.15588,0.062273342,-43.609554,0.73670506,-139.89558
10508905.5,0.94463384,-115.41677,0.00030668222,-71.771927,0.070698984,45.580906,0.73021966,-149.91763
11008901,0.93986338,-120.86922,0.000852692,67.832001,0.033613332,-98.617653,0.74233103,-156.46774
11508896.5,0.93496388,-126.43328,0.0016363524,-49.210403,0.049097762,-51.668858,0.73924887,-162.5748
12008892,0.92629057,-132.09726,0.00069402379,-144.78745,0.019677838,-25.804829,0.69231015,-167.28154
12508887.5,0.92303848,-137.51686,0.0010448735,14.527479,0.019302486,153.10774,0.73500836,-171.56511
13008883,0.91526848,-143.01869,0.00084548694,-135.74477,0.050663475,-26.25724,0.71789372,-176.00301
13508878.5,0.90608919,-148.51956,0.00095135579,-12.47982,0.083382703,-27.460974,0.67519122,176.46706
14008874,0.89983183,-154.02959,0.00058611279,51.97831,0.10514405,-47.78006,0.6868872,171.92014
14508869.5,0.89092088,-159.28061,0.0013215489,119.49296,0.079674751,-94.420845,0.65859944,165.19107
15008865,0.88371122,-164.75974,0.0010900623,-172.29306,0.089215539,-111.51866,0.66998279,158.55179
15508860.5,0.87448627,-170.12965,0.00068800908,-103.85075,0.048395675,-69.883888,0.65240163,153.76364
16008856,0.86809111,-175.36423,0.00034391964,-47.416664,0.10700576,-64.061531,0.64489037,150.81633
16508851.5,0.86046171,179.3532,0.00077111705,-36.408546,0.086376339,-51.879128,0.63867861,145.74898
17008847,0.85416782,174.16148,0.00089011429,-116.98328,0.14066646,-68.896027,0.62641478,141.79077
17508842.5,0.84798688,168.92863,0.0015409478,-164.77467,0.084547043,-75.373825,0.64230335,136.63597
18008838,0.84084648,163.66206,0.00036094867,68.76976,0.046387732,-76.923111,0.66308004,128.94589
18508833.5,0.83678108,158.42422,0.0012588201,-156.75919,0.094650365,-156.31485,0.61980581,124.92807
19008829,0.82971036,153.24222,0.0014832526,-30.724588,0.1360942,-129.96336,0.63893217,124.35011
19508824.5,0.82473695,148.02664,0.00030188085,-113.5663,0.19942749,-109.22882,0.57501364,118.99475
20008820,0.82080364,142.89529,0.0010874592,-161.59698,0.18343008,-144.06993,0.61007792,114.03012
20508815.5,0.81414455,137.71321,0.0003932234,-129.0209,0.15302874,-108.25443,0.65962481,107.23328
21008811,0.81016552,132.65057,0.00083856343,-40.758663,0.21809855,-116.42281,0.62203342,102.41384
21508806.5,0.80615717,127.64165,0.00074277492,116.58646,0.076118439,-125.36911,0.62323385,100.5611
22008802,0.79784435,122.4284,0.00076445687,-137.32317,0.13824593,-82.519188,0.60162073,97.061272
22508797.5,0.79512608,117.57425,0.0015206042,-77.60083,0.11948003,-139.37628,0.60687214,90.143234
23008793,0.79200494,112.05875,0.00035361235,114.80496,0.23450395,-92.988884,0.57767624,87.124054
23508788.5,0.79031563,107.1558,0.0012994071,-85.189842,0.3174668,-123.39539,0.62662113,80.249603
24008784,0.7856524,102.13943,0.00074593443,148.18497,0.20962645,-113.02808,0.60316992,74.664955
24508779.5,0.7774595,96.959999,0.0015440817,-163.30835,0.2826888,-129.7722,0.57122564,74.743881
25008775,0.77804202,92.050529,0.00045147497,-20.073606,0.19765198,-150.60622,0.58528894,70.715958
25508770.5,0.77257603,86.898392,0.0010451641,-67.91259,0.29852831,-118.5267,0.59069002,67.970001
26008766,0.77031565,81.702034,0.0012648805,-165.35959,0.37744483,-155.94597,0.59592003,59.818047
26508761.5,0.7687158,76.759987,0.00052232004,137.62555,0.34539685,-128.51425,0.58286434,56.493839
27008757,0.76580614,71.916908,0.0008578407,-79.150803,0.37301046,-149.44241,0.61903447,49.742928
27508752.5,0.76230496,66.443657,0.0010858892,60.495647,0.61039954,-143.22551,0.63226813,45.557507
28008748,0.75927138,61.632034,0.00019632322,163.50194,0.38213745,-149.24275,0.60215634,46.448425
28508743.5,0.75080484,56.605923,0.0014583268,-20.260374,0.56646746,-162.84019,0.63015562,42.396301
29008739,0.755211,51.991795,0.00027241991,88.814461,0.71587634,-148.81187,0.56605273,36.616356
29508734.5,0.75454432,46.452305,0.00097650493,-175.82935,0.84036833,-146.80943,0.58315456,34.341469
30008730,0.745713,41.449665,0.0015193195,-56.696884,0.71345055,-158.24872,0.58213902,28.606321
30508725.5,0.74655861,36.269413,0.00059684028,62.88052,1.0073057,-171.79503,0.58383763,23.231026
31008721,0.74502724,31.257378,0.001119739,-5.0359721,1.1694206,-152.23402,0.5374133,36.470726
31508716.5,0.74117351,26.254974,0.00085524219,-141.38493,1.5199825,174.63412,0.60157394,28.162352
32008712,0.74215674,20.411394,0.00080975925,161.78705,1.8249725,171.03778,0.50831842,12.67075
32508707.5,0.73167437,16.441793,0.0010536173,-178.71048,1.2600721,157.14529,0.54094356,10.440845
33008703,0.72955018,10.604465,0.0011035514,118.99928,1.8509617,157.8656,0.55538982,7.533669
33508698.5,0.73176128,5.6643333,0.0015261098,81.828705,1.9550985,143.7672,0.53480357,6.9212036
34008694,0.7297945,-0.1713917,0.00091107591,-127.08746,2.8655617,155.73129,0.58665723,2.4471271
34508689.5,0.72035313,-4.9918127,0.0020750847,101.29424,2.4504766,145.23587,0.53559679,-15.793745
35008685,0.7192058,-10.58339,0.00070504297,-109.69761,3.5731483,129.84386,0.5550487,-20.832073
35508680.5,0.71030438,-15.592868,0.001513045,-21.970772,3.8481226,140.27554,0.51088399,1.8516376
36008676,0.70159918,-21.743769,0.00081018731,-145.8591,4.2180591,126.67622,0.73105061,-15.976803
36508671.5,0.70136136,-26.402102,0.0011226455,-142.63794,4.7616143,126.54741,0.56822813,-17.04476
37008667,0.68772274,-32.019966,0.00041272727,29.431173,5.4066453,111.02988,0.48654583,-20.040346
37508662.5,0.68409932,-37.734917,0.00053676974,140.15364,5.6888914,110.14012,0.45895696,-14.466831
38008658,0.67057979,-43.187405,0.00060933351,160.27972,6.986104,103.03346,0.41751647,-25.386688
38508653.5,0.65875518,-48.720112,0.00042730945,95.028206,7.6412897,94.899727,0.69889355,-39.279736
39008649,0.64961541,-53.896233,0.0015655943,84.897697,7.4874215,90.211433,0.61516786,-32.872864
39508644.5,0.63935858,-59.496925,0.0010913275,-70.523613,8.9630089,82.855217,0.47759283,-56.87883
40008640,0.62239248,-65.173355,0.0011037173,-174.4512,10.985236,77.635468,0.46589097,-29.086102
40508635.5,0.61310577,-70.779404,0.0015278155,-20.858812,11.172296,66.293709,0.46854094,-52.7267
41008631,0.59878808,-75.687561,0.00095748581,157.70622,12.412838,62.041588,0.65933329,-49.911991
41508626.5,0.5820424,-81.335274,0.0013552243,122.60173,13.506571,54.224285,0.67981184,-54.576012
42008622,0.56890833,-86.862404,0.0013301108,143.00125,15.863995,44.497108,0.64138681,-66.194107
42508617.5,0.55391014,-92.095085,0.00084655511,4.2418332,16.62129,39.534401,0.51384223,-52.093956
43008613,0.54132372,-97.395409,0.0016494773,-175.15242,18.846146,31.276649,0.4825407,-68.826584
43508608.5,0.52428669,-102.37153,0.0011110875,18.853233,20.116083,24.788366,0.53209019,-77.849884
44008604,0.50723022,-107.59829,0.0018002033,160.3363,22.17532,17.814848,0.60963738,-61.632519
44508599.5,0.49317965,-112.65591,0.0025660156,149.76068,22.957125,11.875607,0.50784016,-77.018867
45008595,0.47840685,-117.61249,0.00097495457,-42.101219,24.966955,4.3653049,0.60443085,-85.053337
45508590.5,0.46344855,-122.69212,0.0010180913,160.21455,27.5739,-1.7727419,0.63806993,-88.981918
46008586,0.44899184,-127.43974,0.00068287976,130.18202,29.124138,-8.8101673,0.54632461,-98.734978
46508581.5,0.43418476,-132.44284,0.0017559887,-154.79207,31.249161,-14.354668,0.53613222,-82.909157
47008577,0.42344159,-137.31961,0.0013554463,-58.829731,33.852058,-21.847435,0.42181817,-102.99127
47508572.5,0.40631282,-141.95558,0.0010703318,-38.547791,35.724701,-28.718521,0.64848542,-101.07643
48008568,0.39608917,-146.62245,0.00095086865,4.1061749,38.187805,-36.076466,0.36191013,-95.988411
48508563.5,0.37796119,-151.31454,0.00046740647,-105.81557,41.851624,-42.179329,0.63344979,-104.33583
49008559,0.36792427,-155.65193,0.0021792953,-133.47258,44.274601,-49.306725,0.6492008,-100.47224
49508554.5,0.355966,-160.12338,0.0022171882,-59.839787,45.949512,-54.594055,0.56644303,-98.30822
50008550,0.34202522,-164.64828,0.00060543168,-10.012165,49.803734,-60.917404,0.52461725,-125.84327
50508545.5,0.33337697,-169.05994,0.00070868596,-27.188717,52.266693,-66.871017,0.59760469,-117.59063
51008541,0.32227585,-173.21791,0.0001888908,140.66467,55.316711,-73.535271,0.60976231,-134.28117
51508536.5,0.31048417,-176.88535,0.0019807438,121.44305,58.91526,-80.455978,0.45380616,-126.60444
52008532,0.30171508,178.32854,0.00082624727,15.101895,61.98024,-85.966515,0.57744336,-136.31482
52508527.5,0.29412055,174.77991,0.0014325535,82.785423,66.182083,-91.328018,0.48820841,-138.43916
53008523,0.28553069,170.55624,0.00035719856,-104.17099,70.040184,-98.102188,0.60800725,-151.18602
53508518.5,0.27672866,166.27936,0.0016621945,78.97802,73.757416,-104.05326,0.54313403,-142.75089
54008514,0.26903141,162.0519,0.0012766877,41.031437,77.335838,-109.59708,0.52577734,-142.57399
54508509.5,0.26113066,158.64671,0.00090513448,96.968895,80.590714,-116.03175,0.62336999,-142.94597
55008505,0.2527388,154.13774,0.0008813265,-105.82966,85.918289,-121.29065,0.38604948,-148.01103
55508500.5,0.24373211,151.54439,0.00078638847,-129.4655,89.500359,-127.50164,0.67591202,-139.10028
56008496,0.24254493,147.17897,0.00082407851,-123.38835,94.918633,-133.61624,0.5783242,-156.52921
56508491.5,0.23102182,142.99646,0.00050032401,63.533691,100.27425,-139.60521,0.58632922,-169.8494
57008487,0.22891535,139.64343,0.0013854523,-77.934273,104.70419,-144.67653,0.56772274,-151.5589
57508482.5,0.22586779,135.97395,0.00060597417,-174.30937,109.7132,-150.18872,0.48243093,-159.72087
58008478,0.21925528,132.26497,0.0014371284,-45.443531,114.51176,-156.33794,0.49937579,-146.34013
58508473.5,0.21013844,128.56444,0.0014628951,-116.95682,120.33551,-162.05473,0.43796375,-178.61122
59008469,0.20663689,124.54562,0.00053241255,-5.2991896,126.80605,-167.37357,0.5482142,176.10095
59508464.5,0.20578566,121.38675,0.00071003597,12.551566,131.85123,-172.90514,0.32446775,165.17871
60008460,0.19806609,118.21661,0.0019964373,-70.039169,137.28297,-178.67589,0.43940395,171.72598
60508455.5,0.19304229,114.61446,0.00081346609,-37.046829,143.90836,175.74744,0.68031913,153.86432
61008451,0.19355705,111.83448,0.00086937757,-48.600124,151.16708,170.1608,0.39813316,155.20616
61508446.5,0.18829095,108.74385,0.0012303586,144.08749,156.916,164.58336,0.4562462,-177.9921
62008442,0.18772112,105.31438,0.001450463,84.409714,163.80637,159.64847,0.45001176,169.92159
62508437.5,0.18507065,100.90784,0.00083622086,-124.35634,170.42993,153.3856,0.40539911,149.24605
63008433,0.18089917,97.350494,0.00071986939,75.84021,176.97745,148.12704,0.43696079,144.64319
63508428.5,0.17538176,93.846703,0.0009913994,-81.810089,185.01685,142.45299,0.57875729,120.07332
64008424,0.17188865,92.358429,0.00084118731,-176.61145,190.77986,137.20618,0.61964494,132.37732
64508419.5,0.16900776,88.657867,0.0016072136,102.27188,199.53125,131.52144,0.42005673,150.90282
65008415,0.16842239,86.290756,0.00050225644,7.4755945,206.18835,126.04803,0.53872019,133.24275
65508410.5,0.16883028,82.593887,0.00041015554,119.86918,214.88939,120.81715,0.43588609,131.70512
66008406,0.16559719,79.839699,0.0018603179,-136.40964,223.5941,115.16572,0.67345029,131.4883
66508401.5,0.16575071,76.631027,0.0016581417,-78.060577,232.07748,110.09781,0.46421215,119.68755
67008397,0.1623933,72.760231,0.0011895853,12.914812,238.53093,104.39027,0.44653562,96.668839
67508392.5,0.16024622,70.225266,0.00020428575,-138.40945,248.48344,98.895325,0.49324536,123.23445
68008388,0.15678224,66.217163,0.0006820269,7.1382833,255.9713,93.175362,0.47280926,85.700623
68508383.5,0.15435272,63.247437,0.0014214852,-152.89716,264.42331,88.044281,0.4798159,109.27004
69008379,0.15434811,61.032795,0.0019834752,-65.84539,273.50928,82.504822,0.39254758,118.75024
69508374.5,0.15357788,58.42688,0.001687708,-161.35005,282.2637,77.399269,0.53332186,104.27432
70008370,0.1507515,54.292141,0.0012363787,-23.146122,290.46356,71.580139,0.45131913,89.534019
70508365.5,0.15073021,54.322075,0.00051757274,-145.49161,299.14755,66.233025,0.53564835,104.17374
71008361,0.14783967,48.836617,0.00028808214,-169.256,307.539,60.790516,0.39996701,42.130272
71508356.5,0.14924446,48.208961,0.00098583684,-163.96184,317.34103,55.511044,0.36847425,79.313515
72008352,0.14607123,44.220207,0.0016765534,5.7339211,324.16214,50.175667,0.31605497,87.940369
72508347.5,0.14384025,42.508713,0.00036734893,87.620239,333.23193,44.858685,0.51824421,90.246452
73008343,0.14341842,38.657383,0.00047044802,-73.08194,341.59064,39.68993,0.43930218,89.069107
73508338.5,0.14426158,36.90464,0.0016281675,-21.402447,352.41302,34.290829,0.3804259,71.594566
74008334,0.14597574,33.674809,0.00043196979,72.71611,359.76855,28.907553,0.30368319,63.276985
74508329.5,0.14433967,31.232946,0.00091806304,109.45396,370.11954,23.58448,0.45250189,32.89019
75008325,0.14023522,29.042719,0.0011829365,111.40579,376.39337,18.246294,0.29056931,49.906387
75508320.5,0.14702104,26.943291,0.00059615192,47.551254,387.01886,13.113905,0.095766261,84.366486
76008316,0.14212736,23.269873,0.000628974,-115.23299,393.3891,7.9311566,0.28752169,59.994328
76508311.5,0.13946067,19.923475,0.0011326143,-124.57211,400.71234,2.6532249,0.43501458,29.963989
77008307,0.13649422,17.373531,0.001590013,58.816433,408.84473,-2.4594319,0.42280883,48.572567
77508302.5,0.14030607,15.538483,0.0016605762,-145.90962,417.86368,-7.5928779,0.46155304,84.20578
78008298,0.13873196,12.726142,0.0019108306,87.459816,425.62646,-12.736928,0.43055144,41.201912
78508293.5,0.136392,10.819777,0.00086422206,-49.705681,431.78381,-17.599003,0.043961447,40.12862
79008289,0.13968511,8.5295048,0.0018532394,26.576626,440.7785,-22.692991,0.31649935,21.819313
79508284.5,0.13853148,5.9039197,0.002090713,31.256212,447.72443,-27.66647,0.6243934,33.213207
80008280,0.13725208,1.9502327,0.0013662378,-142.24811,454.67908,-32.902878,0.24857417,35.083279
80508275.5,0.1387706,-1.6920455,0.00095262477,162.3532,462.65637,-37.7514,0.39531523,45.101658
81008271,0.13577054,-1.7480628,0.0011786293,-83.146225,469.36057,-42.706356,0.18922761,-40.776997
81508266.5,0.13583949,-4.8419752,0.0016533955,156.96759,475.45065,-47.630779,0.42182124,11.830215
82008262,0.13664445,-8.5603123,0.0017825082,91.863686,481.34573,-52.683655,0.36719263,49.13464
82508257.5,0.13596325,-10.38324,0.00052574195,-30.890371,488.33389,-57.451958,0.18205093,26.842318
83008253,0.13282061,-11.614812,0.00107602,-128.50423,495.40662,-62.207027,0.29851112,13.980286
83508248.5,0.13426805,-17.382574,0.00081904687,139.53831,498.93488,-67.296265,0.11402732,-2.9094284
84008244,0.13011377,-18.153879,0.0015879534,-25.613623,506.30402,-71.722816,0.2421775,25.535212
84508239.5,0.13206014,-17.829449,0.00083992351,-7.183835,514.37891,-76.286453,0.2207188,7.9820724
85008235,0.13313261,-22.920872,0.0016621002,-108.38151,518.4151,-81.309013,0.15899749,7.5647755
85508230.5,0.13350505,-24.233637,0.0017965304,76.227898,525.74762,-86.06633,0.26947674,47.132774
86008226,0.13548526,-26.995121,0.00015210116,7.8097868,530.81671,-90.589745,0.33982012,19.021658
86508221.5,0.13392426,-28.483002,0.001762804,-18.97142,536.18018,-95.348503,0.22726071,-0.98856235
87008217,0.12772749,-30.351906,0.0017663733,-22.647171,540.30249,-99.578712,0.13669454,-22.952099
87508212.5,0.13610855,-34.461094,0.00035866784,-70.169357,545.44867,-104.43452,0.092227243,77.956177
88008208,0.13046627,-35.722481,0.00064947963,-89.750366,549.47675,-109.01128,0.10013375,30.791006
88508203.5,0.12849237,-39.038418,0.00062389974,-159.2419,553.59448,-113.21474,0.29940552,-55.274998
89008199,0.1279899,-41.432083,0.00084973482,-43.408783,559.55255,-117.70386,0.20884857,-35.755894
89508194.5,0.13171966,-43.517879,0.00096766144,129.07185,562.70367,-122.26489,0.11677805,1.4711405
90008190,0.12893873,-45.428555,0.0015441957,1.8820143,568.92389,-126.61594,0.25120434,59.798538
90508185.5,0.12941881,-49.146385,0.0016995698,64.896217,572.61707,-130.82191,0.12750551,-60.241806
91008181,0.12662676,-50.707016,0.00061192818,176.72481,577.70819,-135.34761,0.24077505,-78.127586
91508176.5,0.13072386,-54.846245,0.00011084012,100.58012,578.35217,-139.64597,0.088923156,-109.72997
92008172,0.12859415,-54.390507,0.0012794901,-75.164993,587.26587,-144.1752,0.35385361,27.049589
92508167.5,0.12813577,-58.688778,0.00046879947,-155.27943,587.67737,-148.35187,0.070308201,-26.231152
93008163,0.1257318,-58.637032,0.00054183893,-68.085655,593.95038,-152.4698,0.19434097,2.5144045
93508158.5,0.12698723,-62.046322,0.002248456,136.12523,595.13159,-156.80817,0.22513087,-104.88608
94008154,0.12727252,-65.784691,0.0016223028,-37.893581,599.3844,-160.90796,0.15265588,-52.052273
94508149.5,0.12966581,-69.00605,0.00034326149,-114.44054,600.75031,-165.2796,0.083854213,10.057128
95008145,0.12833214,-70.174675,0.00054198038,11.233213,605.51904,-169.37599,0.095976852,34.787128
95508140.5,0.12871912,-73.380806,0.00031538639,-88.588951,608.96613,-173.46342,0.17724207,-42.684475
96008136,0.12705418,-74.826355,0.00023309057,-74.364578,613.44513,-177.68341,0.1794482,-75.541138
96508131.5,0.12945348,-77.806908,0.0012773864,-86.504814,615.52814,178.25673,0.070711143,108.95444
97008127,0.12595932,-78.791908,0.00060360035,131.28299,621.05884,174.23123,0.19656898,-52.885914
97508122.5,0.12728351,-81.740402,0.00076204998,172.06422,621.99408,170.15512,0.041013658,-32.272682
98008118,0.12419496,-85.414612,0.0014980516,168.75822,624.92969,166.12753,0.23552383,-46.471279
98508113.5,0.12505879,-88.026077,0.0012884082,-21.733322,628.55261,162.17705,0.048699841,-20.115404
99008109,0.12340215,-88.751015,0.00046143646,146.87268,633.19214,158.14484,0.10397523,90.092705
99508104.5,0.12359612,-91.377251,0.00081187027,-165.81602,634.58264,154.23042,0.24049719,-36.731377
100008100,0.12500387,-94.395172,0.0015069745,-71.637161,635.42303,150.34972,0.2652539,-42.366341
