!CSV A.01.01
!Keysight Technologies,E5080B,MY59100151,A.13.70.02
!Date: Wednesday, April 01, 2020 18:03:08
!Source: Standard

BEGIN CH1_DATA
Freq(Hz),S11(MAG),S11(DEG),S12(MAG),S12(DEG),S21(MAG),S21(DEG),S22(MAG),S22(DEG)
9000,0.99765897,0.61964697,0.00045324382,-1.0086772,0.0076902648,-86.568542,0.99354267,0.85748088
508995.5,0.99873501,-5.6775661,0.00094874483,-126.70722,0.010225112,-164.981,1.0013118,-7.4582977
1008991,1.0024014,-11.5043,0.0028618758,6.151969,0.0057851379,-125.66443,1.0046721,-14.425669
1508986.5,0.99765044,-16.93391,0.0031975133,109.08306,0.027696608,-136.70126,0.99262619,-22.936743
2008982,0.9989087,-22.724495,0.0018496052,55.59573,0.01118705,55.252422,0.98948377,-31.158401
2508977.5,0.99454802,-28.062628,0.000734156,-115.89137,0.020901313,-33.389038,0.94772625,-41.474194
3008973,0.99655676,-34.071339,0.00067777728,18.033501,0.01893042,-100.93465,0.94832236,-48.74585
3508968.5,0.99075389,-39.625214,0.00089413801,76.801376,0.036793929,47.617222,0.957389,-54.253159
4008964,0.99133867,-44.970333,0.00062210235,-22.999395,0.0281494,134.93251,0.95001304,-62.69199
4508959.5,0.99229854,-50.661701,0.00049203611,110.0863,0.014042948,-99.066025,0.92005664,-70.124771
5008955,0.98805505,-56.614101,0.00029668715,-30.897881,0.017276837,53.017265,0.95452881,-75.103592
5508950.5,0.98592722,-62.036697,0.0013420491,162.80409,0.031989142,-162.22289,0.88417751,-83.697304
6008946,0.98305976,-67.656914,0.00071118528,81.482033,0.015285955,146.65015,0.88255,-90.371849
6508941.5,0.97812414,-73.30143,0.0014834332,143.23318,0.034321148,2.2740953,0.85556382,-100.38748
7008937,0.97492003,-79.029655,0.00095637771,-122.45973,0.031576958,139.0811,0.8544324,-104.75407
7508932.5,0.96854806,-84.503899,0.00081442943,75.668221,0.018793773,-42.130352,0.85810399,-113.27791
8008928,0.96483696,-90.242714,0.0010324407,-162.74107,0.08002004,-22.005033,0.84327978,-119.08652
8508923.5,0.96147341,-95.776878,0.00074463419,-157.8494,0.02864331,-93.475258,0.80841726,-123.36671
9008919,0.95682693,-101.52291,0.0002080548,-87.036652,0.015352825,141.52086,0.81066787,-132.7448
9508914.5,0.95166391,-107.08423,0.00090401294,-159.30051,0.030668681,67.921638,0.78852189,-138.35489
10008910,0.94759828,-112.72667,0.00049719366,-56.779606,0.034617372,-68.336807,0.78706664,-144.87645
10508905.5,0.93959689,-118.31178,0.00087843603,173.92458,0.026658418,0.83905429,0.73490506,-149.33885
11008901,0.93706381,-123.95487,0.00028804049,-86.719864,0.018737236,128.48758,0.7816546,-155.1658
11508896.5,0.93132567,-129.71349,0.00035891763,103.00945,0.062291007,-79.035294,0.73827893,-160.3284
12008892,0.9231075,-135.41698,0.0010570128,-70.903938,0.043976177,-126.90298,0.686005,-167.39861
12508887.5,0.91698515,-141.02139,0.0004837609,169.06613,0.084702112,-125.94873,0.70311934,-170.97897
13008883,0.91124111,-146.53343,5.6594159e-005,-125.91248,0.074018724,-80.820274,0.66241151,179.989
13508878.5,0.90292704,-152.04932,0.0009563354,-31.645937,0.075213768,11.83304,0.70126706,173.18785
14008874,0.89454174,-157.51611,0.00019626545,48.440395,0.075965822,-85.989441,0.67066491,170.5002
14508869.5,0.885427,-162.95891,0.00092671934,-86.538857,0.064222753,-63.128132,0.66821027,163.07394
15008865,0.87814021,-168.30589,0.00071883749,-60.120556,0.15893549,-39.576851,0.65516293,162.82932
15508860.5,0.8703326,-173.73213,0.0011419608,-0.00055138324,0.080311902,-60.401058,0.66842258,156.39212
16008856,0.86385471,-179.144,0.00077208865,27.459723,0.18380362,-85.002602,0.65873766,150.95203
16508851.5,0.85633683,175.68123,0.0014864934,-108.30569,0.066394545,-78.42598,0.61788088,142.17477
17008847,0.84986579,170.3876,0.00076325907,99.141266,0.11597821,-61.456009,0.65566903,143.2662
17508842.5,0.84405327,165.04832,0.0013262351,54.614883,0.13279678,-79.05928,0.61754084,135.25832
18008838,0.8375566,159.78406,0.0016458862,-51.205715,0.08566124,-107.23499,0.59537601,131.10178
18508833.5,0.83192641,154.69392,0.00041275489,104.66783,0.10235372,-109.3206,0.59970576,123.77774
19008829,0.82524854,149.57616,0.00024849098,-32.142159,0.22571731,-66.662498,0.62567931,120.1545
19508824.5,0.8221339,144.30661,0.00025241406,-77.853844,0.14609472,-95.076141,0.56801558,115.92341
20008820,0.81617481,139.21674,0.00073907839,-108.98784,0.091393858,-103.88113,0.59177351,113.53756
20508815.5,0.80992705,134.04692,0.00051211525,-161.01144,0.2194654,-97.189644,0.58770043,110.10354
21008811,0.80585659,128.99017,0.00066135643,64.26693,0.15650922,-80.608536,0.60285705,102.23944
21508806.5,0.80032629,124.02912,0.00086510618,-106.85604,0.27236867,-126.52074,0.62095869,95.376961
22008802,0.79803735,119.03434,0.00083573296,-148.53894,0.2716012,-116.59976,0.61703652,93.502121
22508797.5,0.79241008,113.89467,0.00088042411,167.82948,0.25237989,-149.9411,0.57753009,90.874443
23008793,0.78845412,108.70194,0.00038624552,170.60953,0.28791794,-150.35449,0.58607101,82.929764
23508788.5,0.78722078,103.6229,0.00044911768,-88.335915,0.34607974,-105.2227,0.59663635,80.119858
24008784,0.78293085,98.599037,0.0015698574,-4.293438,0.30392987,-138.11116,0.58246475,73.785004
24508779.5,0.77893889,93.781158,0.00048908882,-29.808281,0.33312222,-143.96165,0.60164982,72.601051
25008775,0.77690941,88.824539,0.00019618862,157.62064,0.28154278,-135.93439,0.5833624,70.652924
25508770.5,0.77198976,83.995796,0.00056000944,-164.541,0.32219407,-136.33762,0.60417247,65.285332
26008766,0.76967812,78.792664,0.00075556099,30.649504,0.35839364,-146.4939,0.59528929,59.680847
26508761.5,0.76612669,74.013222,0.00022153113,94.266708,0.62449288,-144.58141,0.56816959,55.331703
27008757,0.76620138,68.984863,0.00044363126,8.5477715,0.50222659,-144.50081,0.57388157,51.011513
27508752.5,0.76080388,64.049072,0.00031109407,79.57914,0.57576513,-138.22734,0.57287991,49.813469
28008748,0.76147151,58.9874,0.0012777562,-15.196033,0.50701827,-138.43388,0.57720691,44.435467
28508743.5,0.75564653,54.007645,0.00078929256,-102.13632,0.61281955,-158.71915,0.61408365,36.897064
29008739,0.75271535,49.027531,0.00098646362,-120.40401,0.74185699,-148.69868,0.60428953,33.777554
29508734.5,0.75269425,44.078644,0.0015925681,-56.713543,0.7639094,-165.76324,0.57864809,32.924404
30008730,0.7451635,39.092258,0.00040057165,72.359619,0.79311699,-167.84021,0.55914581,27.549187
30508725.5,0.74530512,34.294819,0.00074436876,130.13229,0.97529662,-171.1579,0.59091043,24.151035
31008721,0.73567772,29.068117,0.0009597257,11.390003,1.6027197,-158.09877,0.56651366,23.537762
31508716.5,0.73449987,23.980545,0.00031336216,-54.840954,2.3324451,172.95395,0.51852912,21.147352
32008712,0.73641628,19.001076,0.00061488303,-58.199955,0.92711467,134.01265,0.65204298,23.891621
32508707.5,0.72889471,14.396646,0.0006135396,76.897354,1.6062201,-177.75787,0.60056621,14.820333
33008703,0.72388136,8.79389,0.0013095046,148.60655,2.3334215,157.39513,0.51477963,15.620625
33508698.5,0.7235496,3.8961682,0.00077751296,-98.091881,2.2316003,169.12357,0.49650317,9.4568224
34008694,0.71345025,-1.5983971,0.001828288,-83.344543,2.5571134,158.99294,0.54007149,-4.3682146
34508689.5,0.71705145,-6.1169505,0.0010667539,31.542702,2.53968,151.59943,0.67167032,6.4408555
35008685,0.70503616,-11.583227,0.0011401969,34.485214,3.7922204,144.92352,0.47882149,-5.6656895
35508680.5,0.70584995,-16.73143,0.0012996104,-55.077709,3.7354374,141.4404,0.60468823,-6.9594731
36008676,0.69421422,-21.558514,0.0009843366,-109.7502,3.7639043,116.33279,0.48616597,-24.518255
36508671.5,0.69405895,-27.358059,0.0016879782,27.412699,4.6508093,120.83087,0.68904895,-14.667659
37008667,0.6794824,-33.063023,0.00090929476,-58.897919,4.9919572,117.00809,0.64950335,-28.246803
37508662.5,0.67388093,-37.876167,0.0012810497,167.96844,5.8994265,109.51585,0.51665342,-27.712833
38008658,0.66276181,-43.468082,0.0011202936,-165.91016,6.5965486,97.210419,0.64162248,-27.619671
38508653.5,0.6521517,-49.33329,0.00041749442,-41.902805,7.328485,89.053322,0.54761922,-33.273598
39008649,0.63862205,-54.467571,0.002710162,78.032814,7.8584461,86.493927,0.56384623,-34.18576
39508644.5,0.62870443,-59.599575,0.0014777231,103.36703,8.9523478,81.109299,0.59415132,-35.245667
40008640,0.60871321,-65.293396,0.00069810078,42.550446,9.7315578,71.905113,0.45830873,-33.693665
40508635.5,0.60005713,-70.356346,0.001483807,21.302998,10.55174,67.979919,0.56373644,-48.771194
41008631,0.58516985,-75.836273,0.00013613803,-20.960045,12.044502,58.725914,0.49492428,-66.139397
41508626.5,0.56975919,-80.488258,0.0017704917,-163.15192,13.492119,52.96426,0.66310859,-56.442848
42008622,0.55011004,-86.550247,0.00076793577,173.43701,14.970813,47.167614,0.67115718,-50.935623
42508617.5,0.53684211,-91.28788,0.00051159388,150.57016,16.403131,35.741177,0.48834476,-77.604515
43008613,0.52268934,-97.230721,0.00046898986,81.888306,17.07761,28.476944,0.49110278,-52.819656
43508608.5,0.50756627,-101.95532,0.0012191435,16.734972,19.012379,23.650486,0.68377948,-73.746941
44008604,0.49186182,-107.05092,0.0011219329,24.990608,19.824581,17.340029,0.46054685,-65.040474
44508599.5,0.47585297,-112.24586,0.0011565533,-21.855114,21.637093,9.752718,0.48433894,-76.24218
45008595,0.46045309,-117.172,0.0022775568,164.68941,23.145071,2.1031189,0.52158648,-65.269295
45508590.5,0.44318476,-122.07832,0.0013653252,162.26402,25.355959,-3.6061666,0.55715269,-70.578217
46008586,0.42574123,-126.84574,0.00084037142,-48.460751,28.23045,-10.99112,0.44884345,-79.230522
46508581.5,0.41346109,-131.69034,0.0015307856,-144.37421,30.378429,-17.307117,0.57499969,-114.09782
47008577,0.40111947,-136.14503,0.0017071872,138.44446,32.260883,-24.603182,0.52775997,-84.645828
47508572.5,0.38356471,-140.75027,0.00033184784,150.30081,33.707878,-30.446484,0.54708743,-89.956413
48008568,0.37146851,-145.3804,0.0003657754,-92.848358,36.055271,-37.035992,0.50648928,-94.502365
48508563.5,0.36075068,-149.48016,0.00098649866,-149.39093,38.606384,-44.000385,0.49847591,-110.53177
49008559,0.34534472,-154.4389,0.001208219,29.998991,41.506378,-50.291676,0.54519045,-112.18443
49508554.5,0.33244884,-158.99411,0.00070134847,73.970047,43.756474,-55.824333,0.55974567,-112.1582
50008550,0.3215099,-163.07695,0.0015968863,159.51398,46.468788,-62.790073,0.65404308,-121.32211
50508545.5,0.31102437,-167.58952,0.0015042418,-26.344498,49.128624,-69.283058,0.64470494,-131.18912
51008541,0.29689637,-171.46652,0.0013107491,101.20114,52.041363,-74.467842,0.4815371,-135.61964
51508536.5,0.2866599,-175.70068,0.00084301416,-130.07919,55.192249,-81.393364,0.52489489,-122.65067
52008532,0.27953097,179.80579,0.0016588726,-39.210011,59.055603,-87.155922,0.68531048,-121.24903
52508527.5,0.27017471,175.79228,0.0020684092,-43.80101,62.170006,-93.068779,0.63937461,-133.36591
53008523,0.26266766,172.49036,0.0013938874,-39.57584,65.284935,-99.33316,0.3909235,-118.83521
53508518.5,0.25411057,168.16199,0.00080679846,-140.76678,68.324524,-105.58377,0.59270924,-138.80939
54008514,0.24580233,164.49667,0.0010056171,-172.4819,72.211395,-110.94288,0.46207771,-160.73245
54508509.5,0.23716012,161.15559,0.00049589429,-79.032852,76.90554,-116.6925,0.60858554,-149.61223
55008505,0.23070195,156.12631,0.00092460559,-73.495399,79.463524,-122.62003,0.53782773,-167.34827
55508500.5,0.22140072,152.27557,0.0012522646,1.8881437,84.370842,-128.5576,0.41796044,-162.87338
56008496,0.21476971,148.61511,0.00078778132,-78.266479,88.092522,-134.56404,0.57140845,-159.58731
56508491.5,0.20960261,145.22029,0.0013816871,122.22464,92.825317,-140.48692,0.50474423,-161.14984
57008487,0.20547999,141.04935,0.00033012012,-109.68221,98.47226,-146.08344,0.52838391,-179.05559
57508482.5,0.20221712,137.71458,0.0018726334,79.106522,101.53217,-150.96706,0.53992891,-167.20418
58008478,0.19536275,134.32224,0.00075399416,148.14294,106.8686,-157.13248,0.48495823,-160.19788
58508473.5,0.19126488,129.30025,0.0010408866,6.8708611,112.42139,-162.9241,0.54870242,-174.46245
59008469,0.18567689,126.78398,0.00046363205,-15.662937,116.63886,-168.62131,0.46259665,159.97969
59508464.5,0.18130288,122.5854,0.0011330254,34.306034,123.50129,-174.27309,0.67545271,158.22563
60008460,0.17880443,119.70599,0.00058898819,-98.191978,127.48695,-179.0786,0.5730868,-178.6203
60508455.5,0.17206371,117.14388,0.00099313341,90.587318,133.49786,175.30975,0.64304841,165.03822
61008451,0.17637701,113.00201,0.00086010795,-161.98936,140.19591,170.14278,0.56444138,163.004
61508446.5,0.16637988,108.82703,0.0014379647,14.711187,145.78012,164.49428,0.56057072,153.81845
62008442,0.16303548,106.08946,0.0013986039,168.63359,151.66273,158.73477,0.43930951,171.30746
62508437.5,0.161349,103.60648,0.0020808415,174.74554,157.44156,153.55815,0.41089642,133.13606
63008433,0.15822071,99.90493,0.00041501751,30.967398,164.42796,147.99352,0.66730487,153.84831
63508428.5,0.15868674,97.634712,0.0010141606,-138.24977,170.45467,142.67554,0.5325982,136.22011
64008424,0.15634649,93.258888,0.0013600091,-53.273613,178.55493,137.25414,0.55224818,131.7282
64508419.5,0.1539937,89.920128,0.00084792386,-26.631958,185.86157,131.73643,0.55978537,137.31932
65008415,0.1506177,87.02002,0.0011286195,30.966658,192.74033,126.13947,0.52692485,140.31976
65508410.5,0.14882903,82.480804,0.00062251737,159.90614,199.23555,120.76497,0.45874375,124.64153
66008406,0.14510274,81.234329,0.00030958798,-162.92058,206.77747,115.54498,0.48165327,129.80508
66508401.5,0.14376952,77.592712,0.0015047732,87.673294,214.90294,110.32521,0.37157682,112.28503
67008397,0.14523293,75.436089,0.00087539176,166.02219,220.8419,105.14162,0.34069121,118.30908
67508392.5,0.1426459,71.193245,0.00060791802,51.213886,230.00742,99.491203,0.42327914,124.35249
68008388,0.13911057,68.372108,0.00053923932,-85.301842,236.79814,94.041023,0.2746557,82.094032
68508383.5,0.138953,65.93647,0.0012671945,98.177765,245.4418,88.77243,0.48679268,115.14173
69008379,0.1395797,62.607536,0.00052656117,-11.088319,254.66547,83.376846,0.31826159,87.622147
69508374.5,0.1371735,60.473862,0.000118334,116.68774,263.2583,77.841965,0.4221411,82.695869
70008370,0.13893092,56.328449,0.0015834852,-161.27373,271.6843,72.456612,0.40378195,95.834373
70508365.5,0.13208555,55.764805,0.0016960908,158.06216,278.51895,67.304268,0.52428997,80.837448
71008361,0.13216144,51.202263,0.0007257376,-40.9459,287.022,61.91988,0.27750602,88.974617
71508356.5,0.13149507,48.903198,0.0017703442,-22.994724,296.50378,56.684795,0.52577662,91.936127
72008352,0.12916614,44.218731,0.00084457028,-162.94751,304.83731,51.199497,0.45363903,81.153305
72508347.5,0.12923312,43.134754,0.0008129091,95.530426,312.56976,46.011841,0.41605005,100.29579
73008343,0.12804368,41.822353,0.0010908796,-118.10379,320.51837,40.940666,0.1618427,28.476448
73508338.5,0.1301797,37.986191,0.00066032319,72.911636,329.55844,35.482929,0.38021028,62.89679
74008334,0.12738888,34.994041,0.0014558495,126.66801,337.02551,30.221771,0.60529834,90.711571
74508329.5,0.12970012,32.366158,0.00055496278,103.18645,346.68002,24.931082,0.375065,82.968445
75008325,0.13050883,29.921936,0.001301337,-6.9857373,355.82608,19.762238,0.36764607,51.260376
75508320.5,0.13360582,26.693308,0.00094025396,132.3419,363.44391,14.636285,0.34461984,44.026203
76008316,0.12772,23.262913,0.0015907889,-140.42909,370.86868,9.1138592,0.42424944,80.815338
76508311.5,0.12544139,22.019087,0.000767335,135.22516,379.30786,4.1998858,0.2651031,34.003067
77008307,0.12571523,19.815123,0.0003652969,16.730293,386.71152,-1.0037301,0.28727326,67.228699
77508302.5,0.12990144,15.831161,0.00086641317,-62.166626,395.16208,-6.0678945,0.40164441,55.118202
78008298,0.12390213,15.044398,0.0011556795,155.07568,402.71841,-11.006423,0.30397901,63.23864
78508293.5,0.12770109,13.005595,0.00047955141,-92.771667,410.62744,-15.959576,0.37847975,22.4132
79008289,0.12934943,10.005248,0.00060352165,-56.343193,418.6575,-21.153778,0.21624877,119.44669
79508284.5,0.12463321,7.7520742,0.00084259466,128.88191,425.03311,-26.055006,0.28528193,30.81028
80008280,0.12341809,5.6651073,0.00082093984,49.78825,433.19061,-30.830999,0.26576969,-15.496089
80508275.5,0.12148744,3.4531231,0.00030632032,-99.642715,439.0748,-35.796204,0.39368278,41.642944
81008271,0.12458901,-0.066370986,0.00093469623,137.51353,446.45557,-41.013611,0.36971417,-7.4605365
81508266.5,0.12359153,-3.0722451,0.0002418565,83.432297,452.4953,-46.024433,0.27280039,15.335269
82008262,0.1224501,-3.6445069,0.00057800201,135.78835,461.21442,-50.654984,0.17772564,16.313999
82508257.5,0.12132778,-8.3715944,0.00063275325,96.227837,465.49744,-55.626694,0.27681485,32.289162
83008253,0.12464128,-10.521381,0.0011833406,-5.6356235,472.42941,-60.657578,0.32150975,1.0127827
83508248.5,0.1223678,-13.555707,0.00062572432,-35.180981,477.73956,-65.333603,0.17357579,-14.970511
84008244,0.12331956,-15.127834,0.00046930549,-57.919022,485.32611,-70.040367,0.30646685,58.745918
84508239.5,0.12271348,-17.933786,0.00038589691,-130.59915,490.48755,-74.909988,0.19372989,99.670067
85008235,0.12074841,-21.795473,0.00021011982,-50.727047,496.55698,-79.649353,0.4274798,13.243515
85508230.5,0.12163243,-21.91683,0.0004129438,86.019791,502.51013,-84.198112,0.12052169,-30.978107
86008226,0.1205859,-24.785776,0.0021601929,-95.440697,509.11298,-88.885216,0.35632822,-14.833255
86508221.5,0.12120085,-27.922918,0.0013270178,-52.018978,512.69165,-93.636528,0.23027198,-24.043196
87008217,0.11812104,-29.088577,0.0010154576,37.131683,518.67487,-97.95713,0.21492237,-17.3521
87508212.5,0.11911424,-31.705288,0.00050588726,-75.21331,524.98352,-102.71834,0.34252983,8.440794
88008208,0.11624161,-33.763275,0.0002629715,94.440971,528.53375,-107.03391,0.3015739,-38.192432
88508203.5,0.11819621,-35.991489,0.00038182628,50.040188,534.30688,-111.63482,0.19656686,42.34322
89008199,0.11983851,-38.285374,0.0015238504,12.992146,538.6593,-116.25761,0.21067442,-1.7178004
89508194.5,0.12167794,-40.333458,0.00133743,94.642708,544.21332,-120.69921,0.23407355,-5.3312263
90008190,0.11820622,-43.203522,7.1108603e-005,160.90724,549.15955,-125.04705,0.24013735,-16.608574
90508185.5,0.11982378,-46.755119,0.0011080018,58.852283,550.7146,-129.42137,0.38807926,-29.307823
91008181,0.11881384,-49.8526,0.00077902718,-30.585844,554.17285,-133.76215,0.15341254,68.28949
91508176.5,0.1188015,-51.652946,0.0009002494,-63.682255,560.15112,-138.30318,0.042562347,-6.3801703
92008172,0.11612815,-52.137989,0.0017277772,-82.722565,565.37769,-142.37779,0.35978454,-95.733803
92508167.5,0.11798987,-55.249416,0.00033355414,-42.711018,568.76587,-146.8083,0.44830543,29.096605
93008163,0.12043349,-57.054497,0.0010096456,-29.584955,573.242,-151.14555,0.43994617,-17.848976
93508158.5,0.11666171,-60.038273,0.0012157891,-77.15876,576.21747,-155.22945,0.38720781,-57.061115
94008154,0.11188799,-63.007923,0.0014271487,132.13028,579.35535,-159.16554,0.16765159,-81.404808
94508149.5,0.11603452,-64.397743,0.0016316839,73.028191,584.05505,-163.7995,0.2197886,-37.190502
95008145,0.11176538,-67.269089,0.00052364549,-64.133194,589.06683,-167.69882,0.34712115,-23.137754
95508140.5,0.11508709,-68.115364,0.00081738195,82.546272,591.6521,-172.12689,0.14796564,-78.083527
96008136,0.11406105,-70.115845,0.00044238972,-125.02231,596.49481,-176.12691,0.33525035,-21.902822
96508131.5,0.11271814,-74.08889,0.0013260707,-43.52512,598.82892,179.69112,0.26675922,-7.9232707
97008127,0.11504299,-77.855858,0.00039433315,159.01634,600.4093,175.71718,0.41311583,-74.620407
97508122.5,0.11420783,-79.861855,0.0013929856,172.57133,603.46326,171.66653,0.22615273,-38.772182
98008118,0.11230699,-80.780502,0.00092642155,-135.82587,607.92761,167.59828,0.30029815,-19.540627
98508113.5,0.11038386,-83.37928,0.00041305341,124.88767,611.64355,163.61877,0.22971502,-37.414921
99008109,0.11181574,-85.20977,0.0005753733,-131.02641,614.37268,159.53084,0.22805962,-0.48736763
99508104.5,0.11226214,-89.144958,0.00071610051,129.48526,615.09277,155.55818,0.15269761,22.634047
100008100,0.1092961,-90.711609,0.0019020953,4.4569907,620.48267,151.66394,0.26906565,51.927742
